<Qucs Dataset 0.0.19>
<indep acfrequency 19>
  +1.00000000000000000000e+009
  +1.50000000000000000000e+009
  +2.00000000000000000000e+009
  +2.50000000000000000000e+009
  +3.00000000000000000000e+009
  +3.50000000000000000000e+009
  +4.00000000000000000000e+009
  +4.50000000000000000000e+009
  +5.00000000000000000000e+009
  +5.50000000000000000000e+009
  +6.00000000000000000000e+009
  +6.50000000000000000000e+009
  +7.00000000000000000000e+009
  +7.50000000000000000000e+009
  +8.00000000000000000000e+009
  +8.50000000000000000000e+009
  +9.00000000000000000000e+009
  +9.50000000000000000000e+009
  +1.00000000000000000000e+010
</indep>
<dep Pr1.v acfrequency>
  +4.99999995000000025411e-008+j7.64992795754711236736e-016
  +4.99999995000000091585e-008+j5.09995197169807458288e-016
  +4.99999995000000157760e-008+j3.82496397877355716976e-016
  +4.99999995000000223934e-008+j3.05997124056728612377e-016
  +4.99999995000000157760e-008+j2.54997598584903778448e-016
  +4.99999995000000290109e-008+j2.18569361091344922278e-016
  +4.99999995000000157760e-008+j1.91248198938677858488e-016
  +4.99999995000000157760e-008+j1.69998400783194806782e-016
  +4.99999995000000290109e-008+j1.52998555410919405764e-016
  +4.99999995000000223934e-008+j1.39089586202734150078e-016
  +4.99999995000000157760e-008+j1.27498799292451889224e-016
  +4.99999995000000223934e-008+j1.17691199346878712487e-016
  +4.99999995000000290109e-008+j1.09284667310782660291e-016
  +4.99999995000000025411e-008+j1.01999039433961491658e-016
  +4.99999995000000157760e-008+j9.56240994693389292440e-017
  +4.99999995000000223934e-008+j8.99991564699007332018e-017
  +4.99999995000000157760e-008+j8.49992268613770050878e-017
  +4.99999995000000223934e-008+j8.05255574478643653610e-017
  +4.99999995000000290109e-008+j7.64992512356801011852e-017
</dep>
<dep V1.i acfrequency>
  -1.93408455615764892890e-013-j3.14159262217386745647e-004
  -1.93408455615764892890e-013-j4.71238893326080118470e-004
  -1.93408455615764892890e-013-j6.28318524434773491294e-004
  -1.93408455615764892890e-013-j7.85398155543466972538e-004
  -1.93408455615764892890e-013-j9.42477786652160236941e-004
  -1.93408455615764892890e-013-j1.09955741776085382660e-003
  -1.93408455615764892890e-013-j1.25663704886954698259e-003
  -1.93408455615764892890e-013-j1.41371667997824035541e-003
  -1.93408455615764892890e-013-j1.57079631108693394508e-003
  -1.93408455615764892890e-013-j1.72787594219562710106e-003
  -1.93408455615764892890e-013-j1.88495557330432047388e-003
  -1.93408455615764892890e-013-j2.04203520441301406355e-003
  -1.93408455615764892890e-013-j2.19911483552170765321e-003
  -1.93408455615764892890e-013-j2.35619446663040037551e-003
  -1.93408455615764892890e-013-j2.51327409773909396518e-003
  -1.93408455615764892890e-013-j2.67035372884778755484e-003
  -1.93408455615764892890e-013-j2.82743335995648071082e-003
  -1.93408455615764892890e-013-j2.98451299106517430049e-003
  -1.93408455615764892890e-013-j3.14159262217386789015e-003
</dep>
<dep _net2.v acfrequency>
  +2.22044604925031308085e-016
  +1.05471187339389871340e-015
  +2.22044604925031308085e-016
  +1.36002320516581676202e-015-j1.19209289550781250000e-007
  +1.05471187339389871340e-015
  -8.32667268468867405318e-017-j2.38418579101562500000e-007
  +2.22044604925031308085e-016
  +2.22044604925031308085e-016+j2.38418579101562500000e-007
  +2.77555756156289135106e-017-j4.76837158203125000000e-007
  +3.60822483003175875638e-016-j2.38418579101562500000e-007
  +1.05471187339389871340e-015
  -5.82867087928207183722e-016
  -8.32667268468867405318e-017-j4.76837158203125000000e-007
  +2.22044604925031308085e-016
  +2.22044604925031308085e-016
  -5.82867087928207183722e-016-j4.76837158203125000000e-007
  +2.22044604925031308085e-016+j4.76837158203125000000e-007
  -6.38378239159465010744e-016
  +2.77555756156289135106e-017-j9.53674316406250000000e-007
</dep>
<dep _net0.v acfrequency>
  +4.99999997220446074661e-008+j7.64992795754711236736e-016
  +5.00000005547118825524e-008+j5.09995197169807458288e-016
  +4.99999997220446207010e-008+j3.82496397877355716976e-016
  +5.00000008600232275593e-008-j1.19209289244784125943e-007
  +5.00000005547118891699e-008+j2.54997598584903778448e-016
  +4.99999994167333021640e-008-j2.38418578882993138909e-007
  +4.99999997220446207010e-008+j1.91248198938677858488e-016
  +4.99999997220446207010e-008+j2.38418579271560900783e-007
  +4.99999995277556046265e-008-j4.76837158050126444589e-007
  +4.99999998608225053966e-008-j2.38418578962472913797e-007
  +5.00000005547118891699e-008+j1.27498799292451889224e-016
  +4.99999989171329344652e-008+j1.17691199346878712487e-016
  +4.99999994167333021640e-008-j4.76837158093840332689e-007
  +4.99999997220446074661e-008+j1.01999039433961491658e-016
  +4.99999997220446207010e-008+j9.56240994693389292440e-017
  +4.99999989171329344652e-008-j4.76837158113125843530e-007
  +4.99999997220446207010e-008+j4.76837158288124226861e-007
  +4.99999988616217832340e-008+j8.05255574478643653610e-017
  +4.99999995277556046265e-008-j9.53674316329750748764e-007
</dep>
<dep _net1.v acfrequency>
  +5.00000000000000000000e+000
  +5.00000000000000088818e+000
  +5.00000000000000000000e+000
  +5.00000000000000177636e+000-j1.19209289550781250000e-007
  +5.00000000000000088818e+000
  +5.00000000000000000000e+000-j2.38418579101562500000e-007
  +5.00000000000000000000e+000
  +5.00000000000000000000e+000+j2.38418579101562500000e-007
  +5.00000000000000000000e+000-j4.76837158203125000000e-007
  +5.00000000000000000000e+000-j2.38418579101562500000e-007
  +5.00000000000000088818e+000
  +4.99999999999999911182e+000
  +5.00000000000000000000e+000-j4.76837158203125000000e-007
  +5.00000000000000000000e+000
  +5.00000000000000000000e+000
  +4.99999999999999911182e+000-j4.76837158203125000000e-007
  +5.00000000000000000000e+000+j4.76837158203125000000e-007
  +4.99999999999999911182e+000
  +5.00000000000000000000e+000-j9.53674316406250000000e-007
</dep>
<indep Pr1.V 1>
  +0.00000000000000000000e+000
</indep>
<indep V1.I 1>
  +0.00000000000000000000e+000
</indep>
<indep _net2.V 1>
  +0.00000000000000000000e+000
</indep>
<indep _net0.V 1>
  +0.00000000000000000000e+000
</indep>
<indep _net1.V 1>
  +0.00000000000000000000e+000
</indep>
